Lg,Wfin,Hfin,Tox,Vgs,Vds,Doping,Id,Delay,Power,Vth,Ion,Ioff,Predicted_Id,Predicted_Delay,Predicted_Power
31.95254015709299,7.619875780925087,32.34111838217602,3.1878002473782545,0.9206782545932166,0.5897737469871156,2.6489181329947194e+17,52.70357705418211,4.554593395778624,0.8314337788754782,0.9375600494756509,63.24429246501853,0.5270357705418212,33.11307854896981,10.961778021172824,0.7871790749725028
38.60757465489678,9.919820013621194,57.687388760721916,2.1744672792136406,0.8816361584443031,0.7407328118946152,9.590085020600581e+17,184.31456128551307,4.414477768430353,2.5030762589391373,0.7348934558427281,221.17747354261567,1.8431456128551307,141.90160648334503,5.732573889738124,1.8690303639160104
34.110535042865756,15.205229990225023,55.53060162176174,4.872817564362035,0.32212380997428386,0.8450089848197968,8.198768225817189e+17,57.03520496017383,6.964223670192444,2.2281041888101685,1.274563512872407,68.4422459522086,0.5703520496017384,212.13904829497326,4.08840733918168,3.7636769626130446
31.795327319875874,5.94811427507946,54.412427133736784,1.9047852033680255,0.6978933300063512,0.8960904559984424,7.269863195026497e+17,137.44952623457635,7.659403501355833,2.507477232841417,0.6809570406736052,164.93943148149162,1.3744952623457636,862.2791803754199,2.7067310616132723,4.460802588084815
26.94619197355619,14.108740610173115,46.11999043780972,1.06295295868185,0.7264128850489502,0.8714888995998444,4.671936694048629e+17,585.128545647787,2.6292120342712235,10.080867891508452,0.51259059173637,702.1542547773444,5.85128545647787,162.5252213546732,4.139229101829901,2.385820118955163
35.835764522666246,12.164697543146241,33.77156658795755,2.303419368015185,0.973102601010057,0.41625396201539255,4.1647291442676045e+17,81.78831385367818,3.027308814841738,0.915050497810541,0.760683873603037,98.1459766244138,0.8178831385367817,62.97848918990293,4.168040723720676,0.8203777316034391
27.5034884505077,9.259999651431517,41.95397069597219,3.0100375878792187,0.3162656386962032,0.87987268675251,7.815557795540833e+17,53.80146054083861,9.391280271770766,2.3816543051568866,0.9020075175758437,64.56175264900634,0.5380146054083861,97.56206041228788,6.0066797076827285,2.84930174509955
45.67092003128319,8.576199213860871,52.60900162865491,1.1134517369203003,0.6717726396780402,0.34104034121864046,5.2441754098698035e+17,82.93604554767052,7.927250612668596,0.8958493270614006,0.5226903473840601,99.52325465720462,0.8293604554767052,106.34299024012611,4.66833568822078,3.053884229544596
48.54651042004117,12.71769114948135,23.944414748912443,3.2369932001356294,0.44334695335509666,0.440119477085398,6.639763174325999e+17,15.516824870368529,8.610056780839233,0.761040314798772,0.9473986400271259,18.620189844442233,0.15516824870368529,86.21443995697562,5.343544514858786,1.2754344851481993
25.33766075303111,10.51891370805562,52.04299521021219,4.497131099804921,0.33756403440411237,0.7360487040461924,5.705310517923278e+17,48.804682032072066,7.135747202846029,1.2672095841066524,1.1994262199609842,58.565618438486474,0.48804682032072066,185.63067860438878,2.4818998067032263,1.1334605188318045
41.669001523306584,11.84779836893983,21.647191653124867,3.8189287776666805,0.7112419673122063,0.38028476781283305,7.150635530798493e+17,17.921339660461804,4.944906279522407,0.4486564917634851,1.063785755533336,21.505607592554163,0.17921339660461805,94.97039431339053,3.5620436070902675,1.318077026119795
31.155796790116177,10.062160726463599,52.65684124857423,3.491873291913217,0.8408229005429617,0.72234331653934,1.0316395403761693e+17,115.87959627342764,3.6825027580962355,1.5035576741095131,0.9983746583826434,139.05551552811315,1.1587959627342763,45.72625801101512,7.1369140838010034,0.8231888715209499
32.72178244375729,19.55740540393966,52.30255216639494,4.823847002833006,0.8424058144576314,0.5155759839544947,3.838448817094289e+17,113.96064209775354,1.9861148506791333,1.077712876834258,1.2647694005666013,136.75277051730424,1.1396064209775354,123.32362948284053,6.01893101403422,1.1455965976532947
47.02386553170644,7.0015914761840605,22.04029235315023,4.833117335368423,0.3212018871091347,0.6006266096082538,1.7541829662476643e+17,5.20123766165722,20.90949150535155,0.5226110236213121,1.2666234670736847,6.241485193988663,0.052012376616572195,202.07829923935023,6.662811765489806,4.758611899640906
12.841442327915477,6.452059297675613,45.08642845847433,4.297065878812914,0.5848624801901126,0.5206060524118346,2.4962346102330026e+17,64.30111703367997,3.402998000544622,0.4069534772772666,1.1594131757625827,77.16134044041597,0.6430111703367998,194.1311073796929,4.932990780568213,3.0157389528414185
13.485171988061628,10.150875931863741,40.09812297251589,3.430967389543404,0.33115673900403436,0.3491214975054331,2.08816033772799e+17,40.562277038524215,4.011616165928273,0.360611948878236,0.986193477908681,48.67473244622906,0.40562277038524214,144.33079929476403,3.749419904038259,2.2407685926104595
10.80873589761303,13.86540351305737,26.792780126868585,2.951058237990827,0.47348705289353876,0.6505311270453726,5.0828907631082656e+17,146.25565364331612,1.646395931712187,1.9883411306978138,0.8902116475981654,175.50678437197934,1.4625565364331612,118.16008407752953,5.224147269777587,2.2088507631602545
43.30479382191752,14.887647077750424,25.935157507095028,1.0532644529858692,0.4350164919305638,0.9745196110764212,2.880305862481952e+16,136.0092871755446,6.686582208279369,13.423624779521523,0.5106528905971739,163.21114461065352,1.3600928717554461,286.05559754637494,6.735479430230664,3.2148302032280265
41.12627003799402,10.958851207520631,50.930365042680926,3.4250476249061657,0.45062780546951003,0.728248343712089,9.643279259883597e+17,53.84690960170613,8.327915435561936,1.6969045995013101,0.9850095249812332,64.61629152204735,0.5384690960170613,70.09053059859484,6.6172425958189365,1.5140687905912522
44.800485929872764,19.989169908832565,42.70770995347377,4.956352301427415,0.5373828898241699,0.5100223101319876,5.2377418814547546e+17,42.991993927953104,4.170653698680794,1.0490856313782795,1.2912704602854832,51.59039271354372,0.42991993927953104,117.7100004760399,5.788652026810562,1.7109100896972
49.14473368931056,10.27839494289564,59.319965396661296,4.2724042000961155,0.4941926292851988,0.9693048838868132,6.20457990623451e+16,53.7861023538162,9.675099075507815,2.260339996090622,1.1544808400192232,64.54332282457943,0.537861023538162,198.50729919720743,4.64682121278132,3.0094863420965807
41.96634256866894,15.821100019399287,59.28991109153377,2.362418575537408,0.9735959379293186,0.5724660763665591,6.852333019581416e+17,216.56946977206331,2.724492972738478,2.194721101966254,0.7724837151074816,259.883363726476,2.165694697720633,88.09411449685699,3.9638622052970875,0.8138869383967172
28.459174490117274,14.563740417961894,59.70667973857066,1.608188100177688,0.5466849840065675,0.7882624137081904,2.7619916959689776e+17,328.80414191518184,3.5744746693851885,5.627010466478507,0.6216376200355376,394.5649702982182,3.2880414191518184,72.49003644697623,6.035330238408239,2.885739264425868
41.22116705145822,17.19580794871191,24.744620734630637,4.136234457868616,0.9259207607050803,0.7438789634457109,1.1569991666254554e+17,67.53573199659878,2.5889512662311733,2.300498700298536,1.1272468915737233,81.04287839591854,0.6753573199659878,126.38362519702613,3.202676307963336,2.0319427702454105
14.730977034757329,19.6433849518073,57.53024547855849,3.975751282526966,0.42672917006464756,0.967037593627196,8.320006491152449e+17,328.5596100053337,1.7573687272408396,4.620445321394941,1.0951502565053932,394.27153200640043,3.285596100053337,86.49211305577528,4.077579913080897,0.7562195740490985
35.59684085310096,18.346904846683103,29.78278436082251,4.868187167917292,0.8346228070317498,0.9402218861463858,2.0592852688518096e+17,98.64520435967054,2.3246544191508485,3.3316260865740226,1.2736374335834586,118.37424523160465,0.9864520435967055,93.10857818507624,4.2697591129241,1.3698146661897104
15.734131496361856,16.46842961536563,38.328490390344484,4.499369447757355,0.34294187521724995,0.40360283944502184,1.1370672617103504e+17,48.466497298918654,2.785929160462949,0.5962233205164995,1.1998738895514711,58.159796758702385,0.48466497298918654,268.58265109911315,1.750878502450663,1.9403352360608697
47.786756681983356,15.473727167274358,50.29626223286904,3.2226505010896296,0.6239328606285388,0.3599801123105957,6.633738807779366e+16,43.96563286141392,4.949653091062648,0.6222125160365574,0.944530100217926,52.7587594336967,0.4396563286141392,72.2836683761338,4.801244993673035,1.8774296708809033
30.873932870002868,10.032472545138495,28.14483728308928,1.4051369878589686,0.30385730816486817,0.8667496294591808,7.312721660988253e+17,70.51082105220722,10.12778071372802,5.363850233895062,0.5810273975717937,84.61298526264866,0.7051082105220722,141.20408440716744,4.17226451357681,2.131799550756234
26.58647759962094,7.21528367310061,42.652464222173194,2.9340026335358402,0.8672035341486051,0.9334602493077762,6.587185348495404e+17,131.03424349758072,4.2489962984616865,2.1428144587757205,0.8868005267071681,157.24109219709686,1.3103424349758073,136.7538054412967,4.595994506901274,2.23476388103358
20.58222448418508,5.939540045897147,27.43266992903983,2.254780216089268,0.9653402252264487,0.6450815227460296,1.8117149180213332e+16,81.84734211944374,3.5897077479403743,1.0961697274327147,0.7509560432178537,98.21681054333249,0.8184734211944374,115.07988408512223,6.9964181078433505,1.0077162986515469
40.969347577368666,8.628525563022272,24.18944426725173,3.049633928099359,0.32457515957900196,0.7835328916836425,2.2926573504382064e+17,16.982519734865633,14.6287486728679,1.7370141010144518,0.9099267856198718,20.37902368183876,0.16982519734865634,106.74188012873564,5.075482595594597,1.14637589162024
28.246013288661942,11.484222217719479,24.66234449718394,2.2068062985586128,0.95369245303132,0.3488517961248927,7.076352108055821e+17,62.13168836861038,2.5789755556353273,0.6333143072615888,0.7413612597117225,74.55802604233244,0.6213168836861038,91.49068520787736,5.911668774651015,2.7678118678199284
32.73735795474594,12.829944104449737,34.305561393928755,4.447291967902383,0.8416977240439469,0.4538630784995303,1.606194461569128e+17,45.75320745490401,3.0315358603026445,0.5942631919372515,1.1894583935804766,54.90384894588481,0.4575320745490401,130.1972548456336,3.9083609970467426,2.4340793099476765
10.751592017454206,16.596253310823073,20.18619347348734,4.377308055931289,0.5512031051549567,0.40456333625970475,5.809832752949029e+17,64.92967511996552,1.1753063045990186,0.6205488678514313,1.175461611186258,77.91561014395863,0.6492967511996552,123.62366723787305,5.693873804811767,4.036758940173548
34.705419883035084,19.381113845848894,36.99415684806758,2.2618606286682237,0.9362135858559635,0.7208124084850238,2.2102490208458624e+17,246.16251288360573,1.9126857899506233,4.452023007458545,0.7523721257336448,295.3950154603269,2.4616251288360576,119.21077630541811,5.285310157572241,1.383481031259433
34.483828908896854,6.759807205772166,46.56788420324596,3.39832538549598,0.5073800898756307,0.438277925636275,4.547419419626794e+17,24.287052685520717,10.054205343993049,0.38209252805783467,0.9796650770991959,29.144463222624857,0.24287052685520719,93.39683536139177,4.307893614910496,1.5180718727294684
34.67735987499027,6.6050621029068735,36.06752740015955,2.7207234305562165,0.5865067185643333,0.3418924208855954,8.687488311837633e+17,20.913979420781608,8.95150644594421,0.28377325086816085,0.8441446861112434,25.09677530493793,0.2091397942078161,177.47788884852798,5.125216723052486,2.220415157430966
47.74992314058497,13.845420845203261,23.431784020793405,4.636371028114253,0.3676978835344151,0.5115450979152074,3.095704630279761e+17,11.100948073497634,9.379407088915805,0.7814403495586052,1.2272742056228505,13.32113768819716,0.11100948073497634,285.0046418505503,2.8414697243675535,6.091201164223939
37.272811964139336,16.180971109209395,22.507554480945622,1.7494436057052911,0.7598572733301008,0.7740487003797669,6.891126660259789e+17,134.9304634065604,3.031485889080709,5.54167697036403,0.6498887211410582,161.91655608787246,1.3493046340656039,93.0364595636521,7.826870566339303,2.0786659836819017
24.38031602295144,17.722255705204773,31.124660510594467,3.7909136071398373,0.3207205801195903,0.7045046069832981,4.438984204549732e+17,54.79546586759665,4.289369935582448,2.3202927667321323,1.0581827214279675,65.75455904111597,0.5479546586759665,74.7058341113936,4.0963006123235495,1.6821267790216476
27.481278151973658,19.03748120325183,26.77250762174403,4.881501311348867,0.639433692639326,0.531507475846245,1.0519370175847342e+17,50.61032274403576,2.257521651271699,1.1017291290126399,1.2763002622697734,60.732387292842915,0.5061032274403576,172.4258666757266,3.575191000970828,1.5753223259408855
37.9052478370906,19.75139363390963,58.603798928718774,1.7011020782523607,0.7782342951767736,0.8834352130903635,3.6702864371528294e+17,499.15484827423484,2.4659895442984605,9.061848163095801,0.6402204156504722,598.9858179290818,4.991548482742348,165.37393767127875,4.676883163084522,2.3523595560717667
12.409018865170793,10.997025383367887,26.0492089989634,1.8078657136968128,0.8748663206643776,0.4933883756084627,8.428672656846266e+17,227.50451092639082,1.2897944959495937,1.480767539103184,0.6615731427393625,273.005413111669,2.275045109263908,154.19313081961994,3.548237323705079,2.7826201862868643
36.670668617826706,10.705027752913598,52.21849749619986,3.7748933546889116,0.40495897273516346,0.48238334685597783,9.73315779845546e+17,32.67357687568788,8.459019086127388,0.6598841903353311,1.0549786709377824,39.20829225082545,0.32673576875687876,117.59772161082884,6.648623495108987,1.8852399472307297
36.82551478472638,7.217130150459086,43.44431766964579,4.116615698099656,0.8278632563741022,0.6919631875527117,8.466308539098452e+17,48.909146624045405,6.163475612324709,0.8394410297555943,1.1233231396199312,58.690975948854486,0.4890914662404541,203.52402082906934,4.217335681485757,2.355865122690531
18.415302442953635,15.274016580253392,42.771476799371776,2.962196219175731,0.8033539164885206,0.6347509478920429,1.7060610686581517e+17,242.31278853350494,1.5007856997589786,2.077524483382277,0.8924392438351463,290.7753462402059,2.4231278853350493,99.40657853232985,4.631370413131984,1.8480944540598423
15.157051906194132,14.851429376612556,40.48322863695138,3.4387458605884853,0.6916993738838488,0.6121808624202525,3.520542054645938e+17,197.34885414271332,1.475465642259034,1.6185557816751144,0.9877491721176972,236.81862497125599,1.9734885414271333,191.27389087451837,3.1785510789569957,1.8660126566542798
22.617134036967354,17.93093893776811,58.87052304455804,1.850729635247315,0.7092512184515047,0.409049933267847,8.328762770206826e+17,301.90100152333963,1.7784204745533956,1.6211108206325318,0.670145927049463,362.28120182800757,3.0190100152333965,78.39074063284328,4.804052295423865,1.1563186592554118
24.548430837704906,6.4588699218146095,34.55379100366551,2.906456914269304,0.3638895045997447,0.6532523341430937,5.583569750518078e+17,30.38460516993664,10.44474084839298,0.9483192998325046,0.8812913828538609,36.46152620392397,0.3038460516993664,82.74518565867169,3.2655106641931404,0.8589011659454932
32.80787081671519,12.466653617380127,51.51663003815505,1.4482875234996606,0.7203297302682661,0.48131324209281096,7.784239391432641e+17,193.05417825698868,3.6533965429599697,1.9941174052453405,0.5896575046999322,231.6650139083864,1.9305417825698867,182.92661476780125,4.439937445312827,2.3440960610435466
27.544060538492815,13.716228945080946,42.21176429867839,2.285687701102659,0.5670655449495825,0.5745259178333108,7.800054339506222e+17,123.4363888125883,3.5412776496371188,1.980783841594617,0.7571375402205318,148.12366657510597,1.2343638881258832,164.62063152274482,3.482249934925239,1.457149851473989
49.53495352236905,8.623355600598776,35.82534670502905,2.139118820123817,0.9073065959391529,0.8134993133694244,8.03770216238184e+16,83.76556850864779,6.331132406809646,2.6678153568038367,0.7278237640247635,100.51868221037735,0.8376556850864779,116.37439276867568,5.575560047690974,1.840385948649618
14.081792429921123,7.535381091937419,58.21863733223124,2.77850144040968,0.5191692172151932,0.9558039778915488,3.4898249994501286e+17,224.7455759672122,3.5995133043272842,2.4776061028439265,0.855700288081936,269.69469116065466,2.247455759672122,94.05211127050927,6.234316501455337,1.6479570809592576
18.35507024379339,17.893712546294324,43.93263877458749,4.720505448974787,0.7036165541544672,0.8417040756325269,4.842312903984375e+17,218.80675286997277,1.4578725066383,2.6855349778070594,1.2441010897949576,262.5681034439673,2.1880675286997278,194.653217686612,2.5793274252471337,3.741033849938517
16.45238071539985,5.878023833533382,24.756677685840543,1.7250706485913696,0.5985999797908361,0.5839437262362845,9.457724743645841e+17,74.18213994490691,4.675851502441039,1.1618938433066401,0.6450141297182739,89.01856793388829,0.7418213994490691,109.3912426327065,5.540280345853145,1.8265587533811145
36.124333018615935,12.059313558771093,36.70156803987426,2.605552986498882,0.9133833567752192,0.7151231975301346,8.992465130058442e+17,126.97417427416913,3.279624754869458,2.3669245293048524,0.8211105972997763,152.36900912900296,1.2697417427416913,96.84934699482818,5.13011764268008,1.1176853552973882
20.131664101591284,6.737510019513279,51.26326910726431,3.462388876438579,0.4777416668924323,0.8225484711129927,4.288016631019076e+17,79.0548293409588,6.254421283591997,1.316577955677011,0.9924777752877159,94.86579520915056,0.7905482934095881,126.7388409644607,4.781449347159896,1.7494696519688808
28.65243091425225,11.85588141997051,47.74988092956855,4.786228344296006,0.35516165221662227,0.589954735067124,1.047092682120459e+17,33.89775022022453,6.804583683534449,0.8621400393072762,1.2572456688592013,40.677300264269434,0.3389775022022453,195.02117744846973,3.9405009886461047,2.3932247766230805
19.77702368006411,19.699434895134637,56.65361319346297,1.5325927661430727,0.8240590046881977,0.5521737111686107,4.104968640115779e+17,679.4920430609646,1.2182848852710901,3.9190287456033626,0.6065185532286146,815.3904516731576,6.794920430609647,229.22432080317006,3.4337450961769544,2.4969476758679336
16.35878334582079,11.355595301832093,30.37509536566081,4.6715064679724545,0.589027631835825,0.3946703071691043,5.40544299314868e+17,42.84335717122036,2.445712627140387,0.37863596150679796,1.234301293594491,51.412028605464435,0.42843357171220364,129.61933619481042,3.843111936640709,2.933607590348176
14.415005646572205,17.85687376256851,50.327748654152956,1.3242151545362462,0.712368851388404,0.8153825610331129,9.05353219485041e+17,1130.7093207867497,1.133194523260563,8.965400855382704,0.5648430309072492,1356.8511849440995,11.307093207867497,162.5419811999448,2.8906865519263945,1.8105156905101147
36.25318357861094,6.759733462747908,38.39500829578084,2.9229655886410577,0.3184725321993458,0.8869560135653374,3.0193047446980486e+17,27.84603429702421,16.840097329079168,1.8193239412103515,0.8845931177282116,33.415241156429055,0.27846034297024214,72.15401655165756,9.936018932594731,0.9604562822665227
15.527318053944551,9.068781151427963,42.94438987867262,2.818359468921931,0.9664768539781814,0.5216090877209669,3.157755042122975e+17,180.77461439598252,1.7715608319258993,0.8754731587933007,0.8636718937843861,216.92953727517903,1.8077461439598252,118.97058448158316,5.4491112701855,2.1973839945668403
17.863294467202138,11.056891110010017,58.20186724025132,1.8384109155087822,0.9143328641694835,0.8484554359497747,6.309114022023626e+17,623.0660519674207,1.7669497333305069,4.329607384258607,0.6676821831017565,747.6792623609048,6.230660519674207,117.2746741313212,4.372064951504036,2.064492568156029
